
T0B58 000:281 SEGGER J-Link V4.91b (beta) Log File (0000ms, 0262ms total)
T0B58 000:281 DLL Compiled: Sep 15 2014 09:17:56 (0000ms, 0262ms total)
T0B58 000:281 Logging started @ 2017-08-22 16:19 (0000ms, 0262ms total)
T0B58 000:281 JLINK_SetWarnOutHandler(...) (0000ms, 0262ms total)
T0B58 000:281 JLINK_OpenEx(...)
Firmware: J-Link ARM V8 compiled Sep 22 2014 23:26:43
Hardware: V8.00
S/N: 17935099
Feature(s): RDI,FlashDL,FlashBP,JFlash  returns O.K. (0260ms, 0522ms total)
T0B58 000:541 JLINK_SetErrorOutHandler(...) (0000ms, 0522ms total)
T0B58 000:541 JLINK_ExecCommand("ProjectFile = "D:\项目资料\小车\新车代码\盲跑主从程序\从芯片\Project\MDK\JLinkSettings.ini"", ...)  returns 0x00 (0000ms, 0522ms total)
T0B58 000:545 JLINK_ExecCommand("Device = MK60DN512xxx10", ...)Device "MK60DN512XXX10" selected (512 KB flash, 128 KB RAM).  returns 0x00 (0007ms, 0529ms total)
T0B58 000:552 JLINK_ExecCommand("DisableConnectionTimeout", ...)  returns 0x01 (0000ms, 0529ms total)
T0B58 000:552 JLINK_GetHardwareVersion()  returns 0x13880 (0000ms, 0529ms total)
T0B58 000:552 JLINK_GetDLLVersion()  returns 49102 (0000ms, 0529ms total)
T0B58 000:552 JLINK_GetFirmwareString(...) (0000ms, 0529ms total)
T0B58 000:568 JLINK_GetDLLVersion()  returns 49102 (0000ms, 0529ms total)
T0B58 000:568 JLINK_GetCompileDateTime() (0000ms, 0529ms total)
T0B58 000:570 JLINK_GetFirmwareString(...) (0000ms, 0529ms total)
T0B58 000:574 JLINK_GetHardwareVersion()  returns 0x13880 (0000ms, 0529ms total)
T0B58 000:586 JLINK_TIF_Select(JLINKARM_TIF_SWD)  returns 0x00 (0001ms, 0530ms total)
T0B58 000:587 JLINK_SetSpeed(500) (0000ms, 0530ms total)
T0B58 000:587 JLINK_GetId() >0x108 TIF>Found SWD-DP with ID 0x2BA01477 >0x0D TIF> >0x28 TIF> >0x0D TIF> >0x28 TIF> >0x0D TIF> >0x21 TIF> >0x0D TIF> >0x28 TIF> >0x0D TIF> >0x21 TIF> >0x0D TIF> >0x21 TIF> >0x0D TIF> >0x21 TIF> >0x0D TIF> >0x21 TIF> >0x0D TIF> >0x21 TIF> >0x0D TIF> >0x21 TIF> >0x0D TIF> >0x21 TIF> >0x0D TIF> >0x21 TIF> >0x0D TIF> >0x21 TIF> >0x0D TIF> >0x21 TIF> >0x0D TIF> >0x28 TIF> >0x0D TIF> >0x28 TIF> >0x0D TIF> >0x28 TIF> >0x0D TIF> >0x28 TIF> >0x0D TIF> >0x28 TIF> >0x0D TIF>
 >0x28 TIF> >0x0D TIF> >0x28 TIF> >0x0D TIF> >0x21 TIF> >0x0D TIF> >0x21 TIF> >0x0D TIF> >0x28 TIF> >0x108 TIF>Found SWD-DP with ID 0x2BA01477 >0x0D TIF> >0x21 TIF> >0x0D TIF> >0x28 TIF> >0x0D TIF> >0x28 TIF> >0x0D TIF> >0x21 TIF> >0x0D TIF> >0x28 TIF> >0x0D TIF> >0x21 TIF> >0x0D TIF> >0x21 TIF> >0x0D TIF> >0x21 TIF> >0x0D TIF> >0x21 TIF> >0x0D TIF> >0x28 TIF> >0x0D TIF> >0x28 TIF> >0x0D TIF> >0x21 TIF> >0x0D TIF> >0x28 TIF> >0x0D TIF> >0x28 TIF> >0x0D TIF> >0x28 TIF> >0x0D TIF> >0x21 TIF> >0x0D TIF>
 >0x21 TIF> >0x0D TIF> >0x28 TIF> >0x0D TIF> >0x21 TIF> >0x0D TIF> >0x21 TIF>Found Cortex-M4 r0p0, Little endian. -- CPU_WriteMem(4 bytes @ 0xE0002000) -- CPU_ReadMem(4 bytes @ 0xE000EDF0) -- CPU_ReadMem(4 bytes @ 0xE0002000)FPUnit: 6 code (BP) slots and 2 literal slots -- CPU_ReadMem(4 bytes @ 0xE000EDFC) -- CPU_ReadMem(4 bytes @ 0xE0001000) -- CPU_WriteMem(4 bytes @ 0xE0001000) -- CPU_ReadMem(4 bytes @ 0xE000ED88) -- CPU_WriteMem(4 bytes @ 0xE000ED88) -- CPU_ReadMem(4 bytes @ 0xE000ED88)
 -- CPU_WriteMem(4 bytes @ 0xE000ED88) -- CPU_ReadMem(4 bytes @ 0xE00FF010)TPIU fitted.ETM fitted.ETB present.CSTF present. -- CPU_ReadMem(4 bytes @ 0xE00FF018) -- CPU_ReadMem(4 bytes @ 0xE0042FE0) -- CPU_ReadMem(4 bytes @ 0xE0042FE4) -- CPU_ReadMem(4 bytes @ 0xE00FF01C) -- CPU_ReadMem(4 bytes @ 0xE0043FE0) -- CPU_ReadMem(4 bytes @ 0xE0043FE4) -- CPU_ReadMem(4 bytes @ 0xE00FF020) -- CPU_ReadMem(2 bytes @ 0x40052000) >0x0D TIF> >0x21 TIF>  returns 0x2BA01477 (0070ms, 0600ms total)
T0B58 000:657 JLINK_GetDeviceFamily()  returns 14 (0000ms, 0600ms total)
T0B58 000:659 JLINK_ReadMem (0xE00FFFF0, 0x0010 Bytes, ...) -- CPU is running -- CPU_ReadMem(16 bytes @ 0xE00FFFF0) - Data: 0D 00 00 00 10 00 00 00 05 00 00 00 B1 00 00 00  returns 0x00 (0001ms, 0601ms total)
T0B58 000:660 JLINK_ReadMem (0xE00FFFD0, 0x0020 Bytes, ...) -- CPU is running -- CPU_ReadMem(32 bytes @ 0xE00FFFD0) - Data: 04 00 00 00 00 00 00 00 00 00 00 00 00 00 00 00 ...  returns 0x00 (0002ms, 0603ms total)
T0B58 000:662 JLINK_ReadMem (0xE00FF000, 0x0018 Bytes, ...) -- CPU is running -- CPU_ReadMem(24 bytes @ 0xE00FF000) - Data: 03 F0 F0 FF 03 20 F0 FF 03 30 F0 FF 03 10 F0 FF ...  returns 0x00 (0002ms, 0605ms total)
T0B58 000:664 JLINK_ReadMemU32(0xE000ED00, 0x0001 Items, ...) -- CPU is running -- CPU_ReadMem(4 bytes @ 0xE000ED00) - Data: 40 C2 0F 41  returns 0x01 (0001ms, 0606ms total)
T0B58 000:665 JLINK_ReadMemU32(0xE000EF40, 0x0001 Items, ...) -- CPU is running -- CPU_ReadMem(4 bytes @ 0xE000EF40) - Data: 00 00 00 00  returns 0x01 (0001ms, 0607ms total)
T0B58 000:666 JLINK_ReadMemU32(0xE000EF44, 0x0001 Items, ...) -- CPU is running -- CPU_ReadMem(4 bytes @ 0xE000EF44) - Data: 00 00 00 00  returns 0x01 (0001ms, 0608ms total)
T0B58 000:667 JLINK_SetResetType(JLINKARM_RESET_TYPE_NORMAL)  returns JLINKARM_RESET_TYPE_SOFT (0000ms, 0608ms total)
T0B58 000:667 JLINK_Reset() -- CPU is running -- CPU_WriteMem(4 bytes @ 0xE000EDF0) -- CPU is running -- CPU_WriteMem(4 bytes @ 0xE000EDFC) >0x35 TIF> -- CPU is running -- CPU_WriteMem(4 bytes @ 0xE000ED0C) -- CPU is running -- CPU_ReadMem(4 bytes @ 0xE000EDF0) -- CPU is running -- CPU_ReadMem(4 bytes @ 0xE000EDF0) -- CPU is running -- CPU_WriteMem(4 bytes @ 0xE000EDF0) -- CPU is running -- CPU_WriteMem(4 bytes @ 0xE000EDFC) -- CPU is running -- CPU_ReadMem(4 bytes @ 0xE000EDF0)
 -- CPU_ReadMem(8 bytes @ 0x20000000) -- CPU_WriteMem(8 bytes @ 0x20000000) -- CPU_WriteMem(8 bytes @ 0x20000000) -- CPU_WriteMem(4 bytes @ 0xE0002000) -- CPU_ReadMem(4 bytes @ 0xE000EDFC) -- CPU_ReadMem(4 bytes @ 0xE0001000) (0041ms, 0649ms total)
T0B58 000:708 JLINK_Halt()  returns 0x00 (0000ms, 0649ms total)
T0B58 000:708 JLINK_IsHalted()  returns TRUE (0000ms, 0649ms total)
T0B58 000:708 JLINK_ReadMemU32(0xE000EDF0, 0x0001 Items, ...) -- CPU_ReadMem(4 bytes @ 0xE000EDF0) - Data: 03 00 03 00  returns 0x01 (0001ms, 0650ms total)
T0B58 000:709 JLINK_WriteU32(0xE000EDF0, 0xA05F0003) -- CPU_WriteMem(4 bytes @ 0xE000EDF0)  returns 0x00 (0001ms, 0651ms total)
T0B58 000:710 JLINK_WriteU32(0xE000EDFC, 0x01000000) -- CPU_WriteMem(4 bytes @ 0xE000EDFC)  returns 0x00 (0001ms, 0652ms total)
T0B58 000:720 JLINK_GetHWStatus(...)  returns 0x00 (0001ms, 0653ms total)
T0B58 000:728 JLINK_GetNumBPUnits(Type = 0xFFFFFF00)  returns 0x06 (0000ms, 0653ms total)
T0B58 000:728 JLINK_GetNumBPUnits(Type = 0xF0)  returns 0x2000 (0000ms, 0653ms total)
T0B58 000:728 JLINK_GetNumWPUnits()  returns 0x04 (0000ms, 0653ms total)
T0B58 000:736 JLINK_GetSpeed()  returns 0x1F4 (0000ms, 0653ms total)
T0B58 000:740 JLINK_ReadMemU32(0xE000E004, 0x0001 Items, ...) -- CPU_ReadMem(4 bytes @ 0xE000E004) - Data: 02 00 00 00  returns 0x01 (0001ms, 0654ms total)
T0B58 000:741 JLINK_ReadMemU32(0xE000E004, 0x0001 Items, ...) -- CPU_ReadMem(4 bytes @ 0xE000E004) - Data: 02 00 00 00  returns 0x01 (0001ms, 0655ms total)
T0B58 000:742 JLINK_WriteMem(0xE0001000, 0x001C Bytes, ...) - Data: 01 00 00 00 00 00 00 00 00 00 00 00 00 00 00 00 ... -- CPU_WriteMem(28 bytes @ 0xE0001000)  returns 0x1C (0001ms, 0656ms total)
T0B58 000:743 JLINK_ReadMem (0xE0001000, 0x001C Bytes, ...) -- CPU_ReadMem(28 bytes @ 0xE0001000) - Data: 01 00 00 40 00 00 00 00 00 00 00 00 00 00 00 00 ...  returns 0x00 (0002ms, 0658ms total)
T0B58 000:745 JLINK_Halt()  returns 0x00 (0000ms, 0658ms total)
T0B58 000:745 JLINK_IsHalted()  returns TRUE (0000ms, 0658ms total)
T0B58 000:749 JLINK_WriteMem(0x20000000, 0x0420 Bytes, ...) - Data: 00 BE 0A E0 0D 78 2D 06 68 40 08 24 40 00 00 D3 ... -- CPU_WriteMem(1056 bytes @ 0x20000000)  returns 0x420 (0030ms, 0688ms total)
T0B58 000:779 JLINK_WriteReg(R0, 0x00000000)  returns 0x00 (0000ms, 0688ms total)
T0B58 000:779 JLINK_WriteReg(R1, 0x05F5E100)  returns 0x00 (0000ms, 0688ms total)
T0B58 000:779 JLINK_WriteReg(R2, 0x00000001)  returns 0x00 (0000ms, 0688ms total)
T0B58 000:779 JLINK_WriteReg(R3, 0x00000000)  returns 0x00 (0000ms, 0688ms total)
T0B58 000:779 JLINK_WriteReg(R4, 0x00000000)  returns 0x00 (0001ms, 0689ms total)
T0B58 000:780 JLINK_WriteReg(R5, 0x00000000)  returns 0x00 (0000ms, 0689ms total)
T0B58 000:780 JLINK_WriteReg(R6, 0x00000000)  returns 0x00 (0000ms, 0689ms total)
T0B58 000:780 JLINK_WriteReg(R7, 0x00000000)  returns 0x00 (0000ms, 0689ms total)
T0B58 000:780 JLINK_WriteReg(R8, 0x00000000)  returns 0x00 (0000ms, 0689ms total)
T0B58 000:780 JLINK_WriteReg(R9, 0x20000418)  returns 0x00 (0000ms, 0689ms total)
T0B58 000:780 JLINK_WriteReg(R10, 0x00000000)  returns 0x00 (0000ms, 0689ms total)
T0B58 000:780 JLINK_WriteReg(R11, 0x00000000)  returns 0x00 (0000ms, 0689ms total)
T0B58 000:780 JLINK_WriteReg(R12, 0x00000000)  returns 0x00 (0000ms, 0689ms total)
T0B58 000:780 JLINK_WriteReg(R13 (SP), 0x20001000)  returns 0x00 (0000ms, 0689ms total)
T0B58 000:780 JLINK_WriteReg(R14, 0x20000001)  returns 0x00 (0000ms, 0689ms total)
T0B58 000:780 JLINK_WriteReg(R15 (PC), 0x20000020)  returns 0x00 (0000ms, 0689ms total)
T0B58 000:780 JLINK_WriteReg(XPSR, 0x01000000)  returns 0x00 (0000ms, 0689ms total)
T0B58 000:780 JLINK_WriteReg(MSP, 0x20001000)  returns 0x00 (0000ms, 0689ms total)
T0B58 000:780 JLINK_WriteReg(PSP, 0x20001000)  returns 0x00 (0000ms, 0689ms total)
T0B58 000:780 JLINK_WriteReg(CFBP, 0x00000000)  returns 0x00 (0000ms, 0689ms total)
T0B58 000:780 JLINK_SetBPEx(Addr = 0x20000000, Type = 0xFFFFFFF2) -- CPU_ReadMem(2 bytes @ 0x20000000)  returns 0x00000001 (0001ms, 0690ms total)
T0B58 000:781 JLINK_Go() -- CPU_WriteMem(2 bytes @ 0x20000000) -- CPU_WriteMem(4 bytes @ 0xE0002008) -- CPU_WriteMem(4 bytes @ 0xE000200C) -- CPU_WriteMem(4 bytes @ 0xE0002010) -- CPU_WriteMem(4 bytes @ 0xE0002014) -- CPU_WriteMem(4 bytes @ 0xE0002018) -- CPU_WriteMem(4 bytes @ 0xE000201C) -- CPU_WriteMem(4 bytes @ 0xE0001004) (0011ms, 0701ms total)
T0B58 000:792 JLINK_IsHalted() -- CPU_ReadMem(2 bytes @ 0x20000000)  returns TRUE (0009ms, 0710ms total)
T0B58 000:801 JLINK_ReadReg(R15 (PC))  returns 0x20000000 (0000ms, 0701ms total)
T0B58 000:801 JLINK_ClrBPEx(BPHandle = 0x00000001)  returns 0x00 (0000ms, 0701ms total)
T0B58 000:801 JLINK_ReadReg(R0)  returns 0x00000000 (0000ms, 0701ms total)
T0B58 000:801 JLINK_WriteReg(R0, 0x00000000)  returns 0x00 (0000ms, 0701ms total)
T0B58 000:801 JLINK_WriteReg(R1, 0x00000800)  returns 0x00 (0000ms, 0701ms total)
T0B58 000:801 JLINK_WriteReg(R2, 0x000000FF)  returns 0x00 (0000ms, 0701ms total)
T0B58 000:801 JLINK_WriteReg(R3, 0x00000000)  returns 0x00 (0000ms, 0701ms total)
T0B58 000:801 JLINK_WriteReg(R4, 0x00000000)  returns 0x00 (0000ms, 0701ms total)
T0B58 000:801 JLINK_WriteReg(R5, 0x00000000)  returns 0x00 (0000ms, 0701ms total)
T0B58 000:801 JLINK_WriteReg(R6, 0x00000000)  returns 0x00 (0000ms, 0701ms total)
T0B58 000:801 JLINK_WriteReg(R7, 0x00000000)  returns 0x00 (0000ms, 0701ms total)
T0B58 000:801 JLINK_WriteReg(R8, 0x00000000)  returns 0x00 (0000ms, 0701ms total)
T0B58 000:801 JLINK_WriteReg(R9, 0x20000418)  returns 0x00 (0000ms, 0701ms total)
T0B58 000:801 JLINK_WriteReg(R10, 0x00000000)  returns 0x00 (0000ms, 0701ms total)
T0B58 000:801 JLINK_WriteReg(R11, 0x00000000)  returns 0x00 (0000ms, 0701ms total)
T0B58 000:801 JLINK_WriteReg(R12, 0x00000000)  returns 0x00 (0000ms, 0701ms total)
T0B58 000:801 JLINK_WriteReg(R13 (SP), 0x20001000)  returns 0x00 (0000ms, 0701ms total)
T0B58 000:801 JLINK_WriteReg(R14, 0x20000001)  returns 0x00 (0000ms, 0701ms total)
T0B58 000:801 JLINK_WriteReg(R15 (PC), 0x20000074)  returns 0x00 (0000ms, 0701ms total)
T0B58 000:801 JLINK_WriteReg(XPSR, 0x01000000)  returns 0x00 (0000ms, 0701ms total)
T0B58 000:801 JLINK_WriteReg(MSP, 0x20001000)  returns 0x00 (0000ms, 0701ms total)
T0B58 000:801 JLINK_WriteReg(PSP, 0x20001000)  returns 0x00 (0000ms, 0701ms total)
T0B58 000:801 JLINK_WriteReg(CFBP, 0x00000000)  returns 0x00 (0000ms, 0701ms total)
T0B58 000:801 JLINK_SetBPEx(Addr = 0x20000000, Type = 0xFFFFFFF2)  returns 0x00000002 (0000ms, 0701ms total)
T0B58 000:801 JLINK_Go() (0004ms, 0705ms total)
T0B58 000:805 JLINK_IsHalted() -- CPU_ReadMem(2 bytes @ 0x20000000)  returns TRUE (0008ms, 0713ms total)
T0B58 000:813 JLINK_ReadReg(R15 (PC))  returns 0x20000000 (0000ms, 0705ms total)
T0B58 000:813 JLINK_ClrBPEx(BPHandle = 0x00000002)  returns 0x00 (0000ms, 0705ms total)
T0B58 000:814 JLINK_ReadReg(R0)  returns 0x00000001 (0000ms, 0705ms total)
T0B58 000:814 JLINK_WriteReg(R0, 0x00000000)  returns 0x00 (0000ms, 0705ms total)
T0B58 000:814 JLINK_WriteReg(R1, 0x00000800)  returns 0x00 (0000ms, 0705ms total)
T0B58 000:814 JLINK_WriteReg(R2, 0x000000FF)  returns 0x00 (0000ms, 0705ms total)
T0B58 000:814 JLINK_WriteReg(R3, 0x00000000)  returns 0x00 (0000ms, 0705ms total)
T0B58 000:814 JLINK_WriteReg(R4, 0x00000000)  returns 0x00 (0000ms, 0705ms total)
T0B58 000:814 JLINK_WriteReg(R5, 0x00000000)  returns 0x00 (0000ms, 0705ms total)
T0B58 000:814 JLINK_WriteReg(R6, 0x00000000)  returns 0x00 (0000ms, 0705ms total)
T0B58 000:814 JLINK_WriteReg(R7, 0x00000000)  returns 0x00 (0000ms, 0705ms total)
T0B58 000:814 JLINK_WriteReg(R8, 0x00000000)  returns 0x00 (0000ms, 0705ms total)
T0B58 000:814 JLINK_WriteReg(R9, 0x20000418)  returns 0x00 (0000ms, 0705ms total)
T0B58 000:814 JLINK_WriteReg(R10, 0x00000000)  returns 0x00 (0000ms, 0705ms total)
T0B58 000:814 JLINK_WriteReg(R11, 0x00000000)  returns 0x00 (0000ms, 0705ms total)
T0B58 000:814 JLINK_WriteReg(R12, 0x00000000)  returns 0x00 (0000ms, 0705ms total)
T0B58 000:814 JLINK_WriteReg(R13 (SP), 0x20001000)  returns 0x00 (0000ms, 0705ms total)
T0B58 000:814 JLINK_WriteReg(R14, 0x20000001)  returns 0x00 (0000ms, 0705ms total)
T0B58 000:814 JLINK_WriteReg(R15 (PC), 0x200000CA)  returns 0x00 (0000ms, 0705ms total)
T0B58 000:814 JLINK_WriteReg(XPSR, 0x01000000)  returns 0x00 (0000ms, 0705ms total)
T0B58 000:814 JLINK_WriteReg(MSP, 0x20001000)  returns 0x00 (0000ms, 0705ms total)
T0B58 000:814 JLINK_WriteReg(PSP, 0x20001000)  returns 0x00 (0000ms, 0705ms total)
T0B58 000:814 JLINK_WriteReg(CFBP, 0x00000000)  returns 0x00 (0000ms, 0705ms total)
T0B58 000:814 JLINK_SetBPEx(Addr = 0x20000000, Type = 0xFFFFFFF2)  returns 0x00000003 (0000ms, 0705ms total)
T0B58 000:814 JLINK_Go() (0003ms, 0708ms total)
T0B58 000:817 JLINK_IsHalted()  returns FALSE (0001ms, 0709ms total)
T0B58 000:890 JLINK_IsHalted() -- CPU_ReadMem(2 bytes @ 0x20000000)  returns TRUE (0010ms, 0718ms total)
T0B58 000:900 JLINK_ReadReg(R15 (PC))  returns 0x20000000 (0000ms, 0708ms total)
T0B58 000:900 JLINK_ClrBPEx(BPHandle = 0x00000003)  returns 0x00 (0000ms, 0708ms total)
T0B58 000:900 JLINK_ReadReg(R0)  returns 0x00000000 (0000ms, 0708ms total)
T0B58 000:900 JLINK_WriteReg(R0, 0x00000800)  returns 0x00 (0000ms, 0708ms total)
T0B58 000:900 JLINK_WriteReg(R1, 0x00000800)  returns 0x00 (0000ms, 0708ms total)
T0B58 000:900 JLINK_WriteReg(R2, 0x000000FF)  returns 0x00 (0000ms, 0708ms total)
T0B58 000:900 JLINK_WriteReg(R3, 0x00000000)  returns 0x00 (0000ms, 0708ms total)
T0B58 000:900 JLINK_WriteReg(R4, 0x00000000)  returns 0x00 (0000ms, 0708ms total)
T0B58 000:900 JLINK_WriteReg(R5, 0x00000000)  returns 0x00 (0000ms, 0708ms total)
T0B58 000:900 JLINK_WriteReg(R6, 0x00000000)  returns 0x00 (0000ms, 0708ms total)
T0B58 000:900 JLINK_WriteReg(R7, 0x00000000)  returns 0x00 (0000ms, 0708ms total)
T0B58 000:900 JLINK_WriteReg(R8, 0x00000000)  returns 0x00 (0000ms, 0708ms total)
T0B58 000:900 JLINK_WriteReg(R9, 0x20000418)  returns 0x00 (0000ms, 0708ms total)
T0B58 000:900 JLINK_WriteReg(R10, 0x00000000)  returns 0x00 (0000ms, 0708ms total)
T0B58 000:900 JLINK_WriteReg(R11, 0x00000000)  returns 0x00 (0000ms, 0708ms total)
T0B58 000:900 JLINK_WriteReg(R12, 0x00000000)  returns 0x00 (0000ms, 0708ms total)
T0B58 000:900 JLINK_WriteReg(R13 (SP), 0x20001000)  returns 0x00 (0000ms, 0708ms total)
T0B58 000:900 JLINK_WriteReg(R14, 0x20000001)  returns 0x00 (0000ms, 0708ms total)
T0B58 000:900 JLINK_WriteReg(R15 (PC), 0x20000074)  returns 0x00 (0000ms, 0708ms total)
T0B58 000:900 JLINK_WriteReg(XPSR, 0x01000000)  returns 0x00 (0000ms, 0708ms total)
T0B58 000:900 JLINK_WriteReg(MSP, 0x20001000)  returns 0x00 (0000ms, 0708ms total)
T0B58 000:900 JLINK_WriteReg(PSP, 0x20001000)  returns 0x00 (0000ms, 0708ms total)
T0B58 000:900 JLINK_WriteReg(CFBP, 0x00000000)  returns 0x00 (0000ms, 0708ms total)
T0B58 000:900 JLINK_SetBPEx(Addr = 0x20000000, Type = 0xFFFFFFF2)  returns 0x00000004 (0000ms, 0708ms total)
T0B58 000:900 JLINK_Go() (0004ms, 0712ms total)
T0B58 000:904 JLINK_IsHalted() -- CPU_ReadMem(2 bytes @ 0x20000000)  returns TRUE (0009ms, 0721ms total)
T0B58 000:913 JLINK_ReadReg(R15 (PC))  returns 0x20000000 (0000ms, 0712ms total)
T0B58 000:913 JLINK_ClrBPEx(BPHandle = 0x00000004)  returns 0x00 (0000ms, 0712ms total)
T0B58 000:913 JLINK_ReadReg(R0)  returns 0x00000001 (0000ms, 0712ms total)
T0B58 000:913 JLINK_WriteReg(R0, 0x00000800)  returns 0x00 (0000ms, 0712ms total)
T0B58 000:913 JLINK_WriteReg(R1, 0x00000800)  returns 0x00 (0000ms, 0712ms total)
T0B58 000:913 JLINK_WriteReg(R2, 0x000000FF)  returns 0x00 (0000ms, 0712ms total)
T0B58 000:913 JLINK_WriteReg(R3, 0x00000000)  returns 0x00 (0000ms, 0712ms total)
T0B58 000:913 JLINK_WriteReg(R4, 0x00000000)  returns 0x00 (0000ms, 0712ms total)
T0B58 000:913 JLINK_WriteReg(R5, 0x00000000)  returns 0x00 (0000ms, 0712ms total)
T0B58 000:913 JLINK_WriteReg(R6, 0x00000000)  returns 0x00 (0000ms, 0712ms total)
T0B58 000:913 JLINK_WriteReg(R7, 0x00000000)  returns 0x00 (0000ms, 0712ms total)
T0B58 000:913 JLINK_WriteReg(R8, 0x00000000)  returns 0x00 (0000ms, 0712ms total)
T0B58 000:913 JLINK_WriteReg(R9, 0x20000418)  returns 0x00 (0000ms, 0712ms total)
T0B58 000:913 JLINK_WriteReg(R10, 0x00000000)  returns 0x00 (0000ms, 0712ms total)
T0B58 000:913 JLINK_WriteReg(R11, 0x00000000)  returns 0x00 (0000ms, 0712ms total)
T0B58 000:913 JLINK_WriteReg(R12, 0x00000000)  returns 0x00 (0000ms, 0712ms total)
T0B58 000:913 JLINK_WriteReg(R13 (SP), 0x20001000)  returns 0x00 (0000ms, 0712ms total)
T0B58 000:913 JLINK_WriteReg(R14, 0x20000001)  returns 0x00 (0000ms, 0712ms total)
T0B58 000:913 JLINK_WriteReg(R15 (PC), 0x200000CA)  returns 0x00 (0000ms, 0712ms total)
T0B58 000:913 JLINK_WriteReg(XPSR, 0x01000000)  returns 0x00 (0000ms, 0712ms total)
T0B58 000:913 JLINK_WriteReg(MSP, 0x20001000)  returns 0x00 (0000ms, 0712ms total)
T0B58 000:913 JLINK_WriteReg(PSP, 0x20001000)  returns 0x00 (0000ms, 0712ms total)
T0B58 000:913 JLINK_WriteReg(CFBP, 0x00000000)  returns 0x00 (0000ms, 0712ms total)
T0B58 000:913 JLINK_SetBPEx(Addr = 0x20000000, Type = 0xFFFFFFF2)  returns 0x00000005 (0000ms, 0712ms total)
T0B58 000:913 JLINK_Go() (0004ms, 0716ms total)
T0B58 000:917 JLINK_IsHalted()  returns FALSE (0001ms, 0717ms total)
T0B58 000:937 JLINK_IsHalted() -- CPU_ReadMem(2 bytes @ 0x20000000)  returns TRUE (0008ms, 0724ms total)
T0B58 000:946 JLINK_ReadReg(R15 (PC))  returns 0x20000000 (0000ms, 0716ms total)
T0B58 000:946 JLINK_ClrBPEx(BPHandle = 0x00000005)  returns 0x00 (0000ms, 0716ms total)
T0B58 000:946 JLINK_ReadReg(R0)  returns 0x00000000 (0000ms, 0716ms total)
T0B58 000:946 JLINK_WriteReg(R0, 0x00001000)  returns 0x00 (0000ms, 0716ms total)
T0B58 000:946 JLINK_WriteReg(R1, 0x00000800)  returns 0x00 (0000ms, 0716ms total)
T0B58 000:946 JLINK_WriteReg(R2, 0x000000FF)  returns 0x00 (0000ms, 0716ms total)
T0B58 000:946 JLINK_WriteReg(R3, 0x00000000)  returns 0x00 (0000ms, 0716ms total)
T0B58 000:946 JLINK_WriteReg(R4, 0x00000000)  returns 0x00 (0000ms, 0716ms total)
T0B58 000:946 JLINK_WriteReg(R5, 0x00000000)  returns 0x00 (0000ms, 0716ms total)
T0B58 000:946 JLINK_WriteReg(R6, 0x00000000)  returns 0x00 (0000ms, 0716ms total)
T0B58 000:946 JLINK_WriteReg(R7, 0x00000000)  returns 0x00 (0000ms, 0716ms total)
T0B58 000:946 JLINK_WriteReg(R8, 0x00000000)  returns 0x00 (0000ms, 0716ms total)
T0B58 000:946 JLINK_WriteReg(R9, 0x20000418)  returns 0x00 (0000ms, 0716ms total)
T0B58 000:946 JLINK_WriteReg(R10, 0x00000000)  returns 0x00 (0000ms, 0716ms total)
T0B58 000:946 JLINK_WriteReg(R11, 0x00000000)  returns 0x00 (0000ms, 0716ms total)
T0B58 000:946 JLINK_WriteReg(R12, 0x00000000)  returns 0x00 (0000ms, 0716ms total)
T0B58 000:946 JLINK_WriteReg(R13 (SP), 0x20001000)  returns 0x00 (0000ms, 0716ms total)
T0B58 000:946 JLINK_WriteReg(R14, 0x20000001)  returns 0x00 (0000ms, 0716ms total)
T0B58 000:946 JLINK_WriteReg(R15 (PC), 0x20000074)  returns 0x00 (0000ms, 0716ms total)
T0B58 000:946 JLINK_WriteReg(XPSR, 0x01000000)  returns 0x00 (0000ms, 0716ms total)
T0B58 000:946 JLINK_WriteReg(MSP, 0x20001000)  returns 0x00 (0000ms, 0716ms total)
T0B58 000:946 JLINK_WriteReg(PSP, 0x20001000)  returns 0x00 (0000ms, 0716ms total)
T0B58 000:946 JLINK_WriteReg(CFBP, 0x00000000)  returns 0x00 (0000ms, 0716ms total)
T0B58 000:946 JLINK_SetBPEx(Addr = 0x20000000, Type = 0xFFFFFFF2)  returns 0x00000006 (0000ms, 0716ms total)
T0B58 000:946 JLINK_Go() (0004ms, 0720ms total)
T0B58 000:950 JLINK_IsHalted() -- CPU_ReadMem(2 bytes @ 0x20000000)  returns TRUE (0009ms, 0729ms total)
T0B58 000:959 JLINK_ReadReg(R15 (PC))  returns 0x20000000 (0000ms, 0720ms total)
T0B58 000:959 JLINK_ClrBPEx(BPHandle = 0x00000006)  returns 0x00 (0000ms, 0720ms total)
T0B58 000:959 JLINK_ReadReg(R0)  returns 0x00000001 (0000ms, 0720ms total)
T0B58 000:959 JLINK_WriteReg(R0, 0x00001000)  returns 0x00 (0000ms, 0720ms total)
T0B58 000:959 JLINK_WriteReg(R1, 0x00000800)  returns 0x00 (0000ms, 0720ms total)
T0B58 000:959 JLINK_WriteReg(R2, 0x000000FF)  returns 0x00 (0000ms, 0720ms total)
T0B58 000:959 JLINK_WriteReg(R3, 0x00000000)  returns 0x00 (0000ms, 0720ms total)
T0B58 000:959 JLINK_WriteReg(R4, 0x00000000)  returns 0x00 (0000ms, 0720ms total)
T0B58 000:959 JLINK_WriteReg(R5, 0x00000000)  returns 0x00 (0000ms, 0720ms total)
T0B58 000:959 JLINK_WriteReg(R6, 0x00000000)  returns 0x00 (0000ms, 0720ms total)
T0B58 000:959 JLINK_WriteReg(R7, 0x00000000)  returns 0x00 (0000ms, 0720ms total)
T0B58 000:959 JLINK_WriteReg(R8, 0x00000000)  returns 0x00 (0000ms, 0720ms total)
T0B58 000:959 JLINK_WriteReg(R9, 0x20000418)  returns 0x00 (0000ms, 0720ms total)
T0B58 000:959 JLINK_WriteReg(R10, 0x00000000)  returns 0x00 (0000ms, 0720ms total)
T0B58 000:959 JLINK_WriteReg(R11, 0x00000000)  returns 0x00 (0000ms, 0720ms total)
T0B58 000:959 JLINK_WriteReg(R12, 0x00000000)  returns 0x00 (0000ms, 0720ms total)
T0B58 000:959 JLINK_WriteReg(R13 (SP), 0x20001000)  returns 0x00 (0000ms, 0720ms total)
T0B58 000:959 JLINK_WriteReg(R14, 0x20000001)  returns 0x00 (0000ms, 0720ms total)
T0B58 000:959 JLINK_WriteReg(R15 (PC), 0x200000CA)  returns 0x00 (0000ms, 0720ms total)
T0B58 000:959 JLINK_WriteReg(XPSR, 0x01000000)  returns 0x00 (0000ms, 0720ms total)
T0B58 000:959 JLINK_WriteReg(MSP, 0x20001000)  returns 0x00 (0000ms, 0720ms total)
T0B58 000:959 JLINK_WriteReg(PSP, 0x20001000)  returns 0x00 (0000ms, 0720ms total)
T0B58 000:959 JLINK_WriteReg(CFBP, 0x00000000)  returns 0x00 (0000ms, 0720ms total)
T0B58 000:959 JLINK_SetBPEx(Addr = 0x20000000, Type = 0xFFFFFFF2)  returns 0x00000007 (0000ms, 0720ms total)
T0B58 000:959 JLINK_Go() (0004ms, 0724ms total)
T0B58 000:963 JLINK_IsHalted()  returns FALSE (0001ms, 0725ms total)
T0B58 000:967 JLINK_IsHalted()  returns FALSE (0001ms, 0725ms total)
T0B58 000:974 JLINK_IsHalted() -- CPU_ReadMem(2 bytes @ 0x20000000)  returns TRUE (0009ms, 0733ms total)
T0B58 000:983 JLINK_ReadReg(R15 (PC))  returns 0x20000000 (0000ms, 0724ms total)
T0B58 000:983 JLINK_ClrBPEx(BPHandle = 0x00000007)  returns 0x00 (0000ms, 0724ms total)
T0B58 000:983 JLINK_ReadReg(R0)  returns 0x00000000 (0000ms, 0724ms total)
T0B58 000:983 JLINK_WriteReg(R0, 0x00001800)  returns 0x00 (0000ms, 0724ms total)
T0B58 000:983 JLINK_WriteReg(R1, 0x00000800)  returns 0x00 (0000ms, 0724ms total)
T0B58 000:983 JLINK_WriteReg(R2, 0x000000FF)  returns 0x00 (0000ms, 0724ms total)
T0B58 000:983 JLINK_WriteReg(R3, 0x00000000)  returns 0x00 (0000ms, 0724ms total)
T0B58 000:983 JLINK_WriteReg(R4, 0x00000000)  returns 0x00 (0000ms, 0724ms total)
T0B58 000:983 JLINK_WriteReg(R5, 0x00000000)  returns 0x00 (0000ms, 0724ms total)
T0B58 000:983 JLINK_WriteReg(R6, 0x00000000)  returns 0x00 (0000ms, 0724ms total)
T0B58 000:983 JLINK_WriteReg(R7, 0x00000000)  returns 0x00 (0000ms, 0724ms total)
T0B58 000:983 JLINK_WriteReg(R8, 0x00000000)  returns 0x00 (0000ms, 0724ms total)
T0B58 000:983 JLINK_WriteReg(R9, 0x20000418)  returns 0x00 (0000ms, 0724ms total)
T0B58 000:983 JLINK_WriteReg(R10, 0x00000000)  returns 0x00 (0000ms, 0724ms total)
T0B58 000:983 JLINK_WriteReg(R11, 0x00000000)  returns 0x00 (0000ms, 0724ms total)
T0B58 000:983 JLINK_WriteReg(R12, 0x00000000)  returns 0x00 (0000ms, 0724ms total)
T0B58 000:983 JLINK_WriteReg(R13 (SP), 0x20001000)  returns 0x00 (0000ms, 0724ms total)
T0B58 000:983 JLINK_WriteReg(R14, 0x20000001)  returns 0x00 (0000ms, 0724ms total)
T0B58 000:983 JLINK_WriteReg(R15 (PC), 0x20000074)  returns 0x00 (0000ms, 0724ms total)
T0B58 000:983 JLINK_WriteReg(XPSR, 0x01000000)  returns 0x00 (0000ms, 0724ms total)
T0B58 000:983 JLINK_WriteReg(MSP, 0x20001000)  returns 0x00 (0000ms, 0724ms total)
T0B58 000:983 JLINK_WriteReg(PSP, 0x20001000)  returns 0x00 (0000ms, 0724ms total)
T0B58 000:983 JLINK_WriteReg(CFBP, 0x00000000)  returns 0x00 (0000ms, 0724ms total)
T0B58 000:983 JLINK_SetBPEx(Addr = 0x20000000, Type = 0xFFFFFFF2)  returns 0x00000008 (0000ms, 0724ms total)
T0B58 000:983 JLINK_Go() (0004ms, 0728ms total)
T0B58 000:987 JLINK_IsHalted() -- CPU_ReadMem(2 bytes @ 0x20000000)  returns TRUE (0009ms, 0737ms total)
T0B58 000:996 JLINK_ReadReg(R15 (PC))  returns 0x20000000 (0000ms, 0728ms total)
T0B58 000:996 JLINK_ClrBPEx(BPHandle = 0x00000008)  returns 0x00 (0000ms, 0728ms total)
T0B58 000:996 JLINK_ReadReg(R0)  returns 0x00000001 (0000ms, 0728ms total)
T0B58 000:996 JLINK_WriteReg(R0, 0x00001800)  returns 0x00 (0000ms, 0728ms total)
T0B58 000:996 JLINK_WriteReg(R1, 0x00000800)  returns 0x00 (0000ms, 0728ms total)
T0B58 000:996 JLINK_WriteReg(R2, 0x000000FF)  returns 0x00 (0000ms, 0728ms total)
T0B58 000:996 JLINK_WriteReg(R3, 0x00000000)  returns 0x00 (0000ms, 0728ms total)
T0B58 000:996 JLINK_WriteReg(R4, 0x00000000)  returns 0x00 (0000ms, 0728ms total)
T0B58 000:996 JLINK_WriteReg(R5, 0x00000000)  returns 0x00 (0000ms, 0728ms total)
T0B58 000:996 JLINK_WriteReg(R6, 0x00000000)  returns 0x00 (0000ms, 0728ms total)
T0B58 000:996 JLINK_WriteReg(R7, 0x00000000)  returns 0x00 (0000ms, 0728ms total)
T0B58 000:996 JLINK_WriteReg(R8, 0x00000000)  returns 0x00 (0000ms, 0728ms total)
T0B58 000:996 JLINK_WriteReg(R9, 0x20000418)  returns 0x00 (0000ms, 0728ms total)
T0B58 000:996 JLINK_WriteReg(R10, 0x00000000)  returns 0x00 (0000ms, 0728ms total)
T0B58 000:996 JLINK_WriteReg(R11, 0x00000000)  returns 0x00 (0000ms, 0728ms total)
T0B58 000:996 JLINK_WriteReg(R12, 0x00000000)  returns 0x00 (0000ms, 0728ms total)
T0B58 000:996 JLINK_WriteReg(R13 (SP), 0x20001000)  returns 0x00 (0000ms, 0728ms total)
T0B58 000:996 JLINK_WriteReg(R14, 0x20000001)  returns 0x00 (0000ms, 0728ms total)
T0B58 000:996 JLINK_WriteReg(R15 (PC), 0x200000CA)  returns 0x00 (0000ms, 0728ms total)
T0B58 000:996 JLINK_WriteReg(XPSR, 0x01000000)  returns 0x00 (0000ms, 0728ms total)
T0B58 000:996 JLINK_WriteReg(MSP, 0x20001000)  returns 0x00 (0000ms, 0728ms total)
T0B58 000:996 JLINK_WriteReg(PSP, 0x20001000)  returns 0x00 (0000ms, 0728ms total)
T0B58 000:996 JLINK_WriteReg(CFBP, 0x00000000)  returns 0x00 (0000ms, 0728ms total)
T0B58 000:996 JLINK_SetBPEx(Addr = 0x20000000, Type = 0xFFFFFFF2)  returns 0x00000009 (0000ms, 0728ms total)
T0B58 000:996 JLINK_Go() (0004ms, 0732ms total)
T0B58 001:000 JLINK_IsHalted()  returns FALSE (0001ms, 0733ms total)
T0B58 001:009 JLINK_IsHalted() -- CPU_ReadMem(2 bytes @ 0x20000000)  returns TRUE (0009ms, 0741ms total)
T0B58 001:018 JLINK_ReadReg(R15 (PC))  returns 0x20000000 (0000ms, 0732ms total)
T0B58 001:018 JLINK_ClrBPEx(BPHandle = 0x00000009)  returns 0x00 (0000ms, 0732ms total)
T0B58 001:018 JLINK_ReadReg(R0)  returns 0x00000000 (0000ms, 0732ms total)
T0B58 001:018 JLINK_WriteReg(R0, 0x00002000)  returns 0x00 (0000ms, 0732ms total)
T0B58 001:018 JLINK_WriteReg(R1, 0x00000800)  returns 0x00 (0000ms, 0732ms total)
T0B58 001:018 JLINK_WriteReg(R2, 0x000000FF)  returns 0x00 (0000ms, 0732ms total)
T0B58 001:018 JLINK_WriteReg(R3, 0x00000000)  returns 0x00 (0000ms, 0732ms total)
T0B58 001:018 JLINK_WriteReg(R4, 0x00000000)  returns 0x00 (0000ms, 0732ms total)
T0B58 001:018 JLINK_WriteReg(R5, 0x00000000)  returns 0x00 (0000ms, 0732ms total)
T0B58 001:018 JLINK_WriteReg(R6, 0x00000000)  returns 0x00 (0000ms, 0732ms total)
T0B58 001:018 JLINK_WriteReg(R7, 0x00000000)  returns 0x00 (0000ms, 0732ms total)
T0B58 001:018 JLINK_WriteReg(R8, 0x00000000)  returns 0x00 (0000ms, 0732ms total)
T0B58 001:018 JLINK_WriteReg(R9, 0x20000418)  returns 0x00 (0000ms, 0732ms total)
T0B58 001:018 JLINK_WriteReg(R10, 0x00000000)  returns 0x00 (0000ms, 0732ms total)
T0B58 001:018 JLINK_WriteReg(R11, 0x00000000)  returns 0x00 (0000ms, 0732ms total)
T0B58 001:018 JLINK_WriteReg(R12, 0x00000000)  returns 0x00 (0000ms, 0732ms total)
T0B58 001:018 JLINK_WriteReg(R13 (SP), 0x20001000)  returns 0x00 (0000ms, 0732ms total)
T0B58 001:018 JLINK_WriteReg(R14, 0x20000001)  returns 0x00 (0000ms, 0732ms total)
T0B58 001:018 JLINK_WriteReg(R15 (PC), 0x20000074)  returns 0x00 (0000ms, 0732ms total)
T0B58 001:018 JLINK_WriteReg(XPSR, 0x01000000)  returns 0x00 (0000ms, 0732ms total)
T0B58 001:018 JLINK_WriteReg(MSP, 0x20001000)  returns 0x00 (0000ms, 0732ms total)
T0B58 001:018 JLINK_WriteReg(PSP, 0x20001000)  returns 0x00 (0000ms, 0732ms total)
T0B58 001:018 JLINK_WriteReg(CFBP, 0x00000000)  returns 0x00 (0000ms, 0732ms total)
T0B58 001:018 JLINK_SetBPEx(Addr = 0x20000000, Type = 0xFFFFFFF2)  returns 0x0000000A (0000ms, 0732ms total)
T0B58 001:018 JLINK_Go() (0005ms, 0737ms total)
T0B58 001:023 JLINK_IsHalted() -- CPU_ReadMem(2 bytes @ 0x20000000)  returns TRUE (0009ms, 0746ms total)
T0B58 001:032 JLINK_ReadReg(R15 (PC))  returns 0x20000000 (0000ms, 0737ms total)
T0B58 001:032 JLINK_ClrBPEx(BPHandle = 0x0000000A)  returns 0x00 (0000ms, 0737ms total)
T0B58 001:032 JLINK_ReadReg(R0)  returns 0x00000001 (0000ms, 0737ms total)
T0B58 001:032 JLINK_WriteReg(R0, 0x00002000)  returns 0x00 (0000ms, 0737ms total)
T0B58 001:032 JLINK_WriteReg(R1, 0x00000800)  returns 0x00 (0000ms, 0737ms total)
T0B58 001:032 JLINK_WriteReg(R2, 0x000000FF)  returns 0x00 (0000ms, 0737ms total)
T0B58 001:032 JLINK_WriteReg(R3, 0x00000000)  returns 0x00 (0000ms, 0737ms total)
T0B58 001:032 JLINK_WriteReg(R4, 0x00000000)  returns 0x00 (0000ms, 0737ms total)
T0B58 001:032 JLINK_WriteReg(R5, 0x00000000)  returns 0x00 (0000ms, 0737ms total)
T0B58 001:032 JLINK_WriteReg(R6, 0x00000000)  returns 0x00 (0000ms, 0737ms total)
T0B58 001:032 JLINK_WriteReg(R7, 0x00000000)  returns 0x00 (0000ms, 0737ms total)
T0B58 001:032 JLINK_WriteReg(R8, 0x00000000)  returns 0x00 (0000ms, 0737ms total)
T0B58 001:032 JLINK_WriteReg(R9, 0x20000418)  returns 0x00 (0000ms, 0737ms total)
T0B58 001:032 JLINK_WriteReg(R10, 0x00000000)  returns 0x00 (0000ms, 0737ms total)
T0B58 001:032 JLINK_WriteReg(R11, 0x00000000)  returns 0x00 (0000ms, 0737ms total)
T0B58 001:032 JLINK_WriteReg(R12, 0x00000000)  returns 0x00 (0000ms, 0737ms total)
T0B58 001:032 JLINK_WriteReg(R13 (SP), 0x20001000)  returns 0x00 (0000ms, 0737ms total)
T0B58 001:032 JLINK_WriteReg(R14, 0x20000001)  returns 0x00 (0000ms, 0737ms total)
T0B58 001:032 JLINK_WriteReg(R15 (PC), 0x200000CA)  returns 0x00 (0000ms, 0737ms total)
T0B58 001:032 JLINK_WriteReg(XPSR, 0x01000000)  returns 0x00 (0001ms, 0738ms total)
T0B58 001:033 JLINK_WriteReg(MSP, 0x20001000)  returns 0x00 (0000ms, 0738ms total)
T0B58 001:033 JLINK_WriteReg(PSP, 0x20001000)  returns 0x00 (0000ms, 0738ms total)
T0B58 001:033 JLINK_WriteReg(CFBP, 0x00000000)  returns 0x00 (0000ms, 0738ms total)
T0B58 001:033 JLINK_SetBPEx(Addr = 0x20000000, Type = 0xFFFFFFF2)  returns 0x0000000B (0000ms, 0738ms total)
T0B58 001:033 JLINK_Go() (0003ms, 0741ms total)
T0B58 001:036 JLINK_IsHalted()  returns FALSE (0001ms, 0742ms total)
T0B58 001:045 JLINK_IsHalted() -- CPU_ReadMem(2 bytes @ 0x20000000)  returns TRUE (0009ms, 0750ms total)
T0B58 001:054 JLINK_ReadReg(R15 (PC))  returns 0x20000000 (0000ms, 0741ms total)
T0B58 001:054 JLINK_ClrBPEx(BPHandle = 0x0000000B)  returns 0x00 (0000ms, 0741ms total)
T0B58 001:054 JLINK_ReadReg(R0)  returns 0x00000000 (0000ms, 0741ms total)
T0B58 001:054 JLINK_WriteReg(R0, 0x00002800)  returns 0x00 (0000ms, 0741ms total)
T0B58 001:054 JLINK_WriteReg(R1, 0x00000800)  returns 0x00 (0000ms, 0741ms total)
T0B58 001:054 JLINK_WriteReg(R2, 0x000000FF)  returns 0x00 (0000ms, 0741ms total)
T0B58 001:054 JLINK_WriteReg(R3, 0x00000000)  returns 0x00 (0000ms, 0741ms total)
T0B58 001:054 JLINK_WriteReg(R4, 0x00000000)  returns 0x00 (0000ms, 0741ms total)
T0B58 001:054 JLINK_WriteReg(R5, 0x00000000)  returns 0x00 (0000ms, 0741ms total)
T0B58 001:054 JLINK_WriteReg(R6, 0x00000000)  returns 0x00 (0000ms, 0741ms total)
T0B58 001:054 JLINK_WriteReg(R7, 0x00000000)  returns 0x00 (0000ms, 0741ms total)
T0B58 001:054 JLINK_WriteReg(R8, 0x00000000)  returns 0x00 (0000ms, 0741ms total)
T0B58 001:054 JLINK_WriteReg(R9, 0x20000418)  returns 0x00 (0000ms, 0741ms total)
T0B58 001:054 JLINK_WriteReg(R10, 0x00000000)  returns 0x00 (0000ms, 0741ms total)
T0B58 001:054 JLINK_WriteReg(R11, 0x00000000)  returns 0x00 (0000ms, 0741ms total)
T0B58 001:054 JLINK_WriteReg(R12, 0x00000000)  returns 0x00 (0000ms, 0741ms total)
T0B58 001:054 JLINK_WriteReg(R13 (SP), 0x20001000)  returns 0x00 (0000ms, 0741ms total)
T0B58 001:054 JLINK_WriteReg(R14, 0x20000001)  returns 0x00 (0000ms, 0741ms total)
T0B58 001:054 JLINK_WriteReg(R15 (PC), 0x20000074)  returns 0x00 (0000ms, 0741ms total)
T0B58 001:054 JLINK_WriteReg(XPSR, 0x01000000)  returns 0x00 (0000ms, 0741ms total)
T0B58 001:054 JLINK_WriteReg(MSP, 0x20001000)  returns 0x00 (0000ms, 0741ms total)
T0B58 001:054 JLINK_WriteReg(PSP, 0x20001000)  returns 0x00 (0000ms, 0741ms total)
T0B58 001:054 JLINK_WriteReg(CFBP, 0x00000000)  returns 0x00 (0000ms, 0741ms total)
T0B58 001:054 JLINK_SetBPEx(Addr = 0x20000000, Type = 0xFFFFFFF2)  returns 0x0000000C (0000ms, 0741ms total)
T0B58 001:054 JLINK_Go() (0004ms, 0745ms total)
T0B58 001:058 JLINK_IsHalted() -- CPU_ReadMem(2 bytes @ 0x20000000)  returns TRUE (0009ms, 0754ms total)
T0B58 001:067 JLINK_ReadReg(R15 (PC))  returns 0x20000000 (0000ms, 0745ms total)
T0B58 001:067 JLINK_ClrBPEx(BPHandle = 0x0000000C)  returns 0x00 (0000ms, 0745ms total)
T0B58 001:067 JLINK_ReadReg(R0)  returns 0x00000001 (0000ms, 0745ms total)
T0B58 001:067 JLINK_WriteReg(R0, 0x00002800)  returns 0x00 (0000ms, 0745ms total)
T0B58 001:067 JLINK_WriteReg(R1, 0x00000800)  returns 0x00 (0000ms, 0745ms total)
T0B58 001:067 JLINK_WriteReg(R2, 0x000000FF)  returns 0x00 (0000ms, 0745ms total)
T0B58 001:067 JLINK_WriteReg(R3, 0x00000000)  returns 0x00 (0000ms, 0745ms total)
T0B58 001:067 JLINK_WriteReg(R4, 0x00000000)  returns 0x00 (0000ms, 0745ms total)
T0B58 001:067 JLINK_WriteReg(R5, 0x00000000)  returns 0x00 (0000ms, 0745ms total)
T0B58 001:067 JLINK_WriteReg(R6, 0x00000000)  returns 0x00 (0000ms, 0745ms total)
T0B58 001:067 JLINK_WriteReg(R7, 0x00000000)  returns 0x00 (0000ms, 0745ms total)
T0B58 001:067 JLINK_WriteReg(R8, 0x00000000)  returns 0x00 (0000ms, 0745ms total)
T0B58 001:067 JLINK_WriteReg(R9, 0x20000418)  returns 0x00 (0000ms, 0745ms total)
T0B58 001:067 JLINK_WriteReg(R10, 0x00000000)  returns 0x00 (0000ms, 0745ms total)
T0B58 001:067 JLINK_WriteReg(R11, 0x00000000)  returns 0x00 (0000ms, 0745ms total)
T0B58 001:067 JLINK_WriteReg(R12, 0x00000000)  returns 0x00 (0000ms, 0745ms total)
T0B58 001:067 JLINK_WriteReg(R13 (SP), 0x20001000)  returns 0x00 (0000ms, 0745ms total)
T0B58 001:067 JLINK_WriteReg(R14, 0x20000001)  returns 0x00 (0000ms, 0745ms total)
T0B58 001:067 JLINK_WriteReg(R15 (PC), 0x200000CA)  returns 0x00 (0000ms, 0745ms total)
T0B58 001:067 JLINK_WriteReg(XPSR, 0x01000000)  returns 0x00 (0000ms, 0745ms total)
T0B58 001:067 JLINK_WriteReg(MSP, 0x20001000)  returns 0x00 (0000ms, 0745ms total)
T0B58 001:067 JLINK_WriteReg(PSP, 0x20001000)  returns 0x00 (0000ms, 0745ms total)
T0B58 001:067 JLINK_WriteReg(CFBP, 0x00000000)  returns 0x00 (0000ms, 0745ms total)
T0B58 001:067 JLINK_SetBPEx(Addr = 0x20000000, Type = 0xFFFFFFF2)  returns 0x0000000D (0000ms, 0745ms total)
T0B58 001:067 JLINK_Go() (0004ms, 0749ms total)
T0B58 001:071 JLINK_IsHalted()  returns FALSE (0001ms, 0750ms total)
T0B58 001:077 JLINK_IsHalted()  returns FALSE (0000ms, 0749ms total)
T0B58 001:081 JLINK_IsHalted() -- CPU_ReadMem(2 bytes @ 0x20000000)  returns TRUE (0008ms, 0757ms total)
T0B58 001:090 JLINK_ReadReg(R15 (PC))  returns 0x20000000 (0000ms, 0749ms total)
T0B58 001:090 JLINK_ClrBPEx(BPHandle = 0x0000000D)  returns 0x00 (0000ms, 0749ms total)
T0B58 001:090 JLINK_ReadReg(R0)  returns 0x00000000 (0000ms, 0749ms total)
T0B58 001:091 JLINK_WriteReg(R0, 0x00003000)  returns 0x00 (0000ms, 0749ms total)
T0B58 001:091 JLINK_WriteReg(R1, 0x00000800)  returns 0x00 (0000ms, 0749ms total)
T0B58 001:091 JLINK_WriteReg(R2, 0x000000FF)  returns 0x00 (0000ms, 0749ms total)
T0B58 001:091 JLINK_WriteReg(R3, 0x00000000)  returns 0x00 (0000ms, 0749ms total)
T0B58 001:091 JLINK_WriteReg(R4, 0x00000000)  returns 0x00 (0000ms, 0749ms total)
T0B58 001:091 JLINK_WriteReg(R5, 0x00000000)  returns 0x00 (0000ms, 0749ms total)
T0B58 001:091 JLINK_WriteReg(R6, 0x00000000)  returns 0x00 (0000ms, 0749ms total)
T0B58 001:091 JLINK_WriteReg(R7, 0x00000000)  returns 0x00 (0000ms, 0749ms total)
T0B58 001:091 JLINK_WriteReg(R8, 0x00000000)  returns 0x00 (0000ms, 0749ms total)
T0B58 001:091 JLINK_WriteReg(R9, 0x20000418)  returns 0x00 (0000ms, 0749ms total)
T0B58 001:091 JLINK_WriteReg(R10, 0x00000000)  returns 0x00 (0000ms, 0749ms total)
T0B58 001:091 JLINK_WriteReg(R11, 0x00000000)  returns 0x00 (0000ms, 0749ms total)
T0B58 001:091 JLINK_WriteReg(R12, 0x00000000)  returns 0x00 (0000ms, 0749ms total)
T0B58 001:091 JLINK_WriteReg(R13 (SP), 0x20001000)  returns 0x00 (0000ms, 0749ms total)
T0B58 001:091 JLINK_WriteReg(R14, 0x20000001)  returns 0x00 (0000ms, 0749ms total)
T0B58 001:091 JLINK_WriteReg(R15 (PC), 0x20000074)  returns 0x00 (0000ms, 0749ms total)
T0B58 001:091 JLINK_WriteReg(XPSR, 0x01000000)  returns 0x00 (0000ms, 0749ms total)
T0B58 001:091 JLINK_WriteReg(MSP, 0x20001000)  returns 0x00 (0000ms, 0749ms total)
T0B58 001:091 JLINK_WriteReg(PSP, 0x20001000)  returns 0x00 (0000ms, 0749ms total)
T0B58 001:091 JLINK_WriteReg(CFBP, 0x00000000)  returns 0x00 (0000ms, 0749ms total)
T0B58 001:091 JLINK_SetBPEx(Addr = 0x20000000, Type = 0xFFFFFFF2)  returns 0x0000000E (0000ms, 0749ms total)
T0B58 001:091 JLINK_Go() (0004ms, 0753ms total)
T0B58 001:095 JLINK_IsHalted() -- CPU_ReadMem(2 bytes @ 0x20000000)  returns TRUE (0010ms, 0763ms total)
T0B58 001:105 JLINK_ReadReg(R15 (PC))  returns 0x20000000 (0000ms, 0753ms total)
T0B58 001:105 JLINK_ClrBPEx(BPHandle = 0x0000000E)  returns 0x00 (0000ms, 0753ms total)
T0B58 001:105 JLINK_ReadReg(R0)  returns 0x00000001 (0000ms, 0753ms total)
T0B58 001:105 JLINK_WriteReg(R0, 0x00003000)  returns 0x00 (0000ms, 0753ms total)
T0B58 001:105 JLINK_WriteReg(R1, 0x00000800)  returns 0x00 (0000ms, 0753ms total)
T0B58 001:105 JLINK_WriteReg(R2, 0x000000FF)  returns 0x00 (0000ms, 0753ms total)
T0B58 001:105 JLINK_WriteReg(R3, 0x00000000)  returns 0x00 (0000ms, 0753ms total)
T0B58 001:105 JLINK_WriteReg(R4, 0x00000000)  returns 0x00 (0000ms, 0753ms total)
T0B58 001:105 JLINK_WriteReg(R5, 0x00000000)  returns 0x00 (0000ms, 0753ms total)
T0B58 001:105 JLINK_WriteReg(R6, 0x00000000)  returns 0x00 (0000ms, 0753ms total)
T0B58 001:105 JLINK_WriteReg(R7, 0x00000000)  returns 0x00 (0000ms, 0753ms total)
T0B58 001:105 JLINK_WriteReg(R8, 0x00000000)  returns 0x00 (0000ms, 0753ms total)
T0B58 001:105 JLINK_WriteReg(R9, 0x20000418)  returns 0x00 (0000ms, 0753ms total)
T0B58 001:105 JLINK_WriteReg(R10, 0x00000000)  returns 0x00 (0000ms, 0753ms total)
T0B58 001:105 JLINK_WriteReg(R11, 0x00000000)  returns 0x00 (0000ms, 0753ms total)
T0B58 001:105 JLINK_WriteReg(R12, 0x00000000)  returns 0x00 (0000ms, 0753ms total)
T0B58 001:105 JLINK_WriteReg(R13 (SP), 0x20001000)  returns 0x00 (0000ms, 0753ms total)
T0B58 001:105 JLINK_WriteReg(R14, 0x20000001)  returns 0x00 (0000ms, 0753ms total)
T0B58 001:105 JLINK_WriteReg(R15 (PC), 0x200000CA)  returns 0x00 (0000ms, 0753ms total)
T0B58 001:105 JLINK_WriteReg(XPSR, 0x01000000)  returns 0x00 (0000ms, 0753ms total)
T0B58 001:105 JLINK_WriteReg(MSP, 0x20001000)  returns 0x00 (0000ms, 0753ms total)
T0B58 001:105 JLINK_WriteReg(PSP, 0x20001000)  returns 0x00 (0000ms, 0753ms total)
T0B58 001:105 JLINK_WriteReg(CFBP, 0x00000000)  returns 0x00 (0000ms, 0753ms total)
T0B58 001:105 JLINK_SetBPEx(Addr = 0x20000000, Type = 0xFFFFFFF2)  returns 0x0000000F (0000ms, 0753ms total)
T0B58 001:105 JLINK_Go() (0003ms, 0756ms total)
T0B58 001:108 JLINK_IsHalted()  returns FALSE (0001ms, 0757ms total)
T0B58 001:117 JLINK_IsHalted() -- CPU_ReadMem(2 bytes @ 0x20000000)  returns TRUE (0009ms, 0765ms total)
T0B58 001:126 JLINK_ReadReg(R15 (PC))  returns 0x20000000 (0000ms, 0756ms total)
T0B58 001:126 JLINK_ClrBPEx(BPHandle = 0x0000000F)  returns 0x00 (0000ms, 0756ms total)
T0B58 001:126 JLINK_ReadReg(R0)  returns 0x00000000 (0000ms, 0756ms total)
T0B58 001:127 JLINK_WriteReg(R0, 0x00003800)  returns 0x00 (0000ms, 0756ms total)
T0B58 001:127 JLINK_WriteReg(R1, 0x00000800)  returns 0x00 (0000ms, 0756ms total)
T0B58 001:127 JLINK_WriteReg(R2, 0x000000FF)  returns 0x00 (0000ms, 0756ms total)
T0B58 001:127 JLINK_WriteReg(R3, 0x00000000)  returns 0x00 (0000ms, 0756ms total)
T0B58 001:127 JLINK_WriteReg(R4, 0x00000000)  returns 0x00 (0000ms, 0756ms total)
T0B58 001:127 JLINK_WriteReg(R5, 0x00000000)  returns 0x00 (0000ms, 0756ms total)
T0B58 001:127 JLINK_WriteReg(R6, 0x00000000)  returns 0x00 (0000ms, 0756ms total)
T0B58 001:127 JLINK_WriteReg(R7, 0x00000000)  returns 0x00 (0000ms, 0756ms total)
T0B58 001:127 JLINK_WriteReg(R8, 0x00000000)  returns 0x00 (0000ms, 0756ms total)
T0B58 001:127 JLINK_WriteReg(R9, 0x20000418)  returns 0x00 (0000ms, 0756ms total)
T0B58 001:127 JLINK_WriteReg(R10, 0x00000000)  returns 0x00 (0000ms, 0756ms total)
T0B58 001:127 JLINK_WriteReg(R11, 0x00000000)  returns 0x00 (0000ms, 0756ms total)
T0B58 001:127 JLINK_WriteReg(R12, 0x00000000)  returns 0x00 (0000ms, 0756ms total)
T0B58 001:127 JLINK_WriteReg(R13 (SP), 0x20001000)  returns 0x00 (0000ms, 0756ms total)
T0B58 001:127 JLINK_WriteReg(R14, 0x20000001)  returns 0x00 (0000ms, 0756ms total)
T0B58 001:127 JLINK_WriteReg(R15 (PC), 0x20000074)  returns 0x00 (0000ms, 0756ms total)
T0B58 001:127 JLINK_WriteReg(XPSR, 0x01000000)  returns 0x00 (0000ms, 0756ms total)
T0B58 001:127 JLINK_WriteReg(MSP, 0x20001000)  returns 0x00 (0000ms, 0756ms total)
T0B58 001:127 JLINK_WriteReg(PSP, 0x20001000)  returns 0x00 (0000ms, 0756ms total)
T0B58 001:127 JLINK_WriteReg(CFBP, 0x00000000)  returns 0x00 (0000ms, 0756ms total)
T0B58 001:127 JLINK_SetBPEx(Addr = 0x20000000, Type = 0xFFFFFFF2)  returns 0x00000010 (0000ms, 0756ms total)
T0B58 001:127 JLINK_Go() (0003ms, 0759ms total)
T0B58 001:130 JLINK_IsHalted() -- CPU_ReadMem(2 bytes @ 0x20000000)  returns TRUE (0009ms, 0768ms total)
T0B58 001:139 JLINK_ReadReg(R15 (PC))  returns 0x20000000 (0000ms, 0759ms total)
T0B58 001:139 JLINK_ClrBPEx(BPHandle = 0x00000010)  returns 0x00 (0000ms, 0759ms total)
T0B58 001:139 JLINK_ReadReg(R0)  returns 0x00000001 (0000ms, 0759ms total)
T0B58 001:139 JLINK_WriteReg(R0, 0x00003800)  returns 0x00 (0000ms, 0759ms total)
T0B58 001:139 JLINK_WriteReg(R1, 0x00000800)  returns 0x00 (0000ms, 0759ms total)
T0B58 001:139 JLINK_WriteReg(R2, 0x000000FF)  returns 0x00 (0000ms, 0759ms total)
T0B58 001:139 JLINK_WriteReg(R3, 0x00000000)  returns 0x00 (0000ms, 0759ms total)
T0B58 001:139 JLINK_WriteReg(R4, 0x00000000)  returns 0x00 (0000ms, 0759ms total)
T0B58 001:139 JLINK_WriteReg(R5, 0x00000000)  returns 0x00 (0000ms, 0759ms total)
T0B58 001:139 JLINK_WriteReg(R6, 0x00000000)  returns 0x00 (0000ms, 0759ms total)
T0B58 001:139 JLINK_WriteReg(R7, 0x00000000)  returns 0x00 (0000ms, 0759ms total)
T0B58 001:139 JLINK_WriteReg(R8, 0x00000000)  returns 0x00 (0000ms, 0759ms total)
T0B58 001:139 JLINK_WriteReg(R9, 0x20000418)  returns 0x00 (0000ms, 0759ms total)
T0B58 001:139 JLINK_WriteReg(R10, 0x00000000)  returns 0x00 (0000ms, 0759ms total)
T0B58 001:139 JLINK_WriteReg(R11, 0x00000000)  returns 0x00 (0000ms, 0759ms total)
T0B58 001:139 JLINK_WriteReg(R12, 0x00000000)  returns 0x00 (0000ms, 0759ms total)
T0B58 001:139 JLINK_WriteReg(R13 (SP), 0x20001000)  returns 0x00 (0000ms, 0759ms total)
T0B58 001:139 JLINK_WriteReg(R14, 0x20000001)  returns 0x00 (0000ms, 0759ms total)
T0B58 001:139 JLINK_WriteReg(R15 (PC), 0x200000CA)  returns 0x00 (0001ms, 0760ms total)
T0B58 001:140 JLINK_WriteReg(XPSR, 0x01000000)  returns 0x00 (0000ms, 0760ms total)
T0B58 001:140 JLINK_WriteReg(MSP, 0x20001000)  returns 0x00 (0000ms, 0760ms total)
T0B58 001:140 JLINK_WriteReg(PSP, 0x20001000)  returns 0x00 (0000ms, 0760ms total)
T0B58 001:140 JLINK_WriteReg(CFBP, 0x00000000)  returns 0x00 (0000ms, 0760ms total)
T0B58 001:140 JLINK_SetBPEx(Addr = 0x20000000, Type = 0xFFFFFFF2)  returns 0x00000011 (0000ms, 0760ms total)
T0B58 001:140 JLINK_Go() (0003ms, 0763ms total)
T0B58 001:143 JLINK_IsHalted()  returns FALSE (0001ms, 0764ms total)
T0B58 001:150 JLINK_IsHalted()  returns FALSE (0001ms, 0764ms total)
T0B58 001:153 JLINK_IsHalted() -- CPU_ReadMem(2 bytes @ 0x20000000)  returns TRUE (0009ms, 0772ms total)
T0B58 001:162 JLINK_ReadReg(R15 (PC))  returns 0x20000000 (0000ms, 0763ms total)
T0B58 001:162 JLINK_ClrBPEx(BPHandle = 0x00000011)  returns 0x00 (0000ms, 0763ms total)
T0B58 001:162 JLINK_ReadReg(R0)  returns 0x00000000 (0000ms, 0763ms total)
T0B58 001:162 JLINK_WriteReg(R0, 0x00004000)  returns 0x00 (0000ms, 0763ms total)
T0B58 001:162 JLINK_WriteReg(R1, 0x00000800)  returns 0x00 (0000ms, 0763ms total)
T0B58 001:162 JLINK_WriteReg(R2, 0x000000FF)  returns 0x00 (0000ms, 0763ms total)
T0B58 001:162 JLINK_WriteReg(R3, 0x00000000)  returns 0x00 (0000ms, 0763ms total)
T0B58 001:162 JLINK_WriteReg(R4, 0x00000000)  returns 0x00 (0000ms, 0763ms total)
T0B58 001:162 JLINK_WriteReg(R5, 0x00000000)  returns 0x00 (0000ms, 0763ms total)
T0B58 001:162 JLINK_WriteReg(R6, 0x00000000)  returns 0x00 (0000ms, 0763ms total)
T0B58 001:162 JLINK_WriteReg(R7, 0x00000000)  returns 0x00 (0000ms, 0763ms total)
T0B58 001:162 JLINK_WriteReg(R8, 0x00000000)  returns 0x00 (0000ms, 0763ms total)
T0B58 001:162 JLINK_WriteReg(R9, 0x20000418)  returns 0x00 (0000ms, 0763ms total)
T0B58 001:162 JLINK_WriteReg(R10, 0x00000000)  returns 0x00 (0000ms, 0763ms total)
T0B58 001:162 JLINK_WriteReg(R11, 0x00000000)  returns 0x00 (0000ms, 0763ms total)
T0B58 001:162 JLINK_WriteReg(R12, 0x00000000)  returns 0x00 (0000ms, 0763ms total)
T0B58 001:162 JLINK_WriteReg(R13 (SP), 0x20001000)  returns 0x00 (0000ms, 0763ms total)
T0B58 001:162 JLINK_WriteReg(R14, 0x20000001)  returns 0x00 (0000ms, 0763ms total)
T0B58 001:162 JLINK_WriteReg(R15 (PC), 0x20000074)  returns 0x00 (0000ms, 0763ms total)
T0B58 001:162 JLINK_WriteReg(XPSR, 0x01000000)  returns 0x00 (0000ms, 0763ms total)
T0B58 001:162 JLINK_WriteReg(MSP, 0x20001000)  returns 0x00 (0000ms, 0763ms total)
T0B58 001:162 JLINK_WriteReg(PSP, 0x20001000)  returns 0x00 (0000ms, 0763ms total)
T0B58 001:162 JLINK_WriteReg(CFBP, 0x00000000)  returns 0x00 (0000ms, 0763ms total)
T0B58 001:162 JLINK_SetBPEx(Addr = 0x20000000, Type = 0xFFFFFFF2)  returns 0x00000012 (0000ms, 0763ms total)
T0B58 001:162 JLINK_Go() (0004ms, 0767ms total)
T0B58 001:166 JLINK_IsHalted() -- CPU_ReadMem(2 bytes @ 0x20000000)  returns TRUE (0009ms, 0776ms total)
T0B58 001:175 JLINK_ReadReg(R15 (PC))  returns 0x20000000 (0000ms, 0767ms total)
T0B58 001:175 JLINK_ClrBPEx(BPHandle = 0x00000012)  returns 0x00 (0000ms, 0767ms total)
T0B58 001:175 JLINK_ReadReg(R0)  returns 0x00000001 (0000ms, 0767ms total)
T0B58 001:175 JLINK_WriteReg(R0, 0x00004000)  returns 0x00 (0000ms, 0767ms total)
T0B58 001:175 JLINK_WriteReg(R1, 0x00000800)  returns 0x00 (0000ms, 0767ms total)
T0B58 001:175 JLINK_WriteReg(R2, 0x000000FF)  returns 0x00 (0000ms, 0767ms total)
T0B58 001:175 JLINK_WriteReg(R3, 0x00000000)  returns 0x00 (0000ms, 0767ms total)
T0B58 001:175 JLINK_WriteReg(R4, 0x00000000)  returns 0x00 (0000ms, 0767ms total)
T0B58 001:175 JLINK_WriteReg(R5, 0x00000000)  returns 0x00 (0000ms, 0767ms total)
T0B58 001:175 JLINK_WriteReg(R6, 0x00000000)  returns 0x00 (0000ms, 0767ms total)
T0B58 001:175 JLINK_WriteReg(R7, 0x00000000)  returns 0x00 (0000ms, 0767ms total)
T0B58 001:175 JLINK_WriteReg(R8, 0x00000000)  returns 0x00 (0000ms, 0767ms total)
T0B58 001:175 JLINK_WriteReg(R9, 0x20000418)  returns 0x00 (0000ms, 0767ms total)
T0B58 001:175 JLINK_WriteReg(R10, 0x00000000)  returns 0x00 (0000ms, 0767ms total)
T0B58 001:175 JLINK_WriteReg(R11, 0x00000000)  returns 0x00 (0000ms, 0767ms total)
T0B58 001:175 JLINK_WriteReg(R12, 0x00000000)  returns 0x00 (0000ms, 0767ms total)
T0B58 001:175 JLINK_WriteReg(R13 (SP), 0x20001000)  returns 0x00 (0000ms, 0767ms total)
T0B58 001:175 JLINK_WriteReg(R14, 0x20000001)  returns 0x00 (0000ms, 0767ms total)
T0B58 001:175 JLINK_WriteReg(R15 (PC), 0x200000CA)  returns 0x00 (0000ms, 0767ms total)
T0B58 001:175 JLINK_WriteReg(XPSR, 0x01000000)  returns 0x00 (0000ms, 0767ms total)
T0B58 001:175 JLINK_WriteReg(MSP, 0x20001000)  returns 0x00 (0000ms, 0767ms total)
T0B58 001:175 JLINK_WriteReg(PSP, 0x20001000)  returns 0x00 (0000ms, 0767ms total)
T0B58 001:175 JLINK_WriteReg(CFBP, 0x00000000)  returns 0x00 (0000ms, 0767ms total)
T0B58 001:175 JLINK_SetBPEx(Addr = 0x20000000, Type = 0xFFFFFFF2)  returns 0x00000013 (0000ms, 0767ms total)
T0B58 001:175 JLINK_Go() (0005ms, 0772ms total)
T0B58 001:180 JLINK_IsHalted()  returns FALSE (0001ms, 0773ms total)
T0B58 001:185 JLINK_IsHalted()  returns FALSE (0001ms, 0773ms total)
T0B58 001:188 JLINK_IsHalted() -- CPU_ReadMem(2 bytes @ 0x20000000)  returns TRUE (0009ms, 0781ms total)
T0B58 001:197 JLINK_ReadReg(R15 (PC))  returns 0x20000000 (0000ms, 0772ms total)
T0B58 001:197 JLINK_ClrBPEx(BPHandle = 0x00000013)  returns 0x00 (0000ms, 0772ms total)
